
T1F1C 000:000 SEGGER J-Link V6.16c Log File (0000ms, 0000ms total)
T1F1C 000:000 DLL Compiled: Jun 16 2017 18:14:49 (0000ms, 0000ms total)
T1F1C 000:000 Logging started @ 2019-04-27 13:34 (0000ms, 0000ms total)
T1F1C 000:000 JLINK_SetWarnOutHandler(...) (0000ms, 0000ms total)
T1F1C 000:000 JLINK_OpenEx(...)
Firmware: J-Link V9 compiled Jun 16 2017 16:15:10
Hardware: V9.40
S/N: 59407062
Feature(s): RDI, GDB, FlashDL, FlashBP, JFlashWEBSRV Webserver running on local port 19080 (0047ms, 0047ms total)
T1F1C 000:000   returns O.K. (0047ms, 0047ms total)
T1F1C 000:047 JLINK_GetEmuCaps()  returns 0xB9FF7BBF (0000ms, 0047ms total)
T1F1C 000:047 JLINK_TIF_GetAvailable(...) (0001ms, 0048ms total)
T1F1C 000:048 JLINK_SetErrorOutHandler(...) (0000ms, 0048ms total)
T1F1C 000:048 JLINK_ExecCommand("ProjectFile = "D:\2-work\10-redrad\proj\csj\smartgit\120_90_746_2.0_csj\Projects\MDK-ARM\JLinkSettings.ini"", ...).   returns 0x00 (0302ms, 0350ms total)
T1F1C 000:350 JLINK_ExecCommand("Device = STM32F746IGKx", ...). Device "STM32F746IG" selected.  returns 0x00 (0006ms, 0356ms total)
T1F1C 000:356 JLINK_ExecCommand("DisableConnectionTimeout", ...).   returns 0x01 (0000ms, 0356ms total)
T1F1C 000:356 JLINK_GetHardwareVersion()  returns 0x16F30 (0000ms, 0356ms total)
T1F1C 000:356 JLINK_GetDLLVersion()  returns 61603 (0000ms, 0356ms total)
T1F1C 000:356 JLINK_GetFirmwareString(...) (0000ms, 0356ms total)
T1F1C 000:356 JLINK_GetDLLVersion()  returns 61603 (0000ms, 0356ms total)
T1F1C 000:356 JLINK_GetCompileDateTime() (0000ms, 0356ms total)
T1F1C 000:356 JLINK_GetFirmwareString(...) (0000ms, 0356ms total)
T1F1C 000:356 JLINK_GetHardwareVersion()  returns 0x16F30 (0000ms, 0356ms total)
T1F1C 000:356 JLINK_TIF_Select(JLINKARM_TIF_SWD)  returns 0x00 (0005ms, 0361ms total)
T1F1C 000:361 JLINK_SetSpeed(5000) (0001ms, 0362ms total)
T1F1C 000:362 JLINK_GetId() >0x10B TIF>Found SW-DP with ID 0x5BA02477 >0x0D TIF> >0x28 TIF> >0x0D TIF> >0x28 TIF> >0x0D TIF> >0x28 TIF> >0x0D TIF> >0x28 TIF> >0x0D TIF> >0x21 TIF> >0x0D TIF> >0x28 TIF> >0x0D TIF> >0x28 TIF> >0x0D TIF> >0x28 TIF> >0x0D TIF> >0x21 TIF> >0x0D TIF> >0x21 TIF> >0x0D TIF> >0x28 TIF> >0x0D TIF> >0x21 TIF> >0x0D TIF> >0x21 TIF> >0x0D TIF> >0x28 TIF> >0x0D TIF> >0x21 TIF> >0x0D TIF> >0x21 TIF> >0x0D TIF> >0x28 TIF> >0x0D TIF> >0x21 TIF> >0x0D TIF> >0x21 TIF> >0x0D TIF> >0x28 TIF>
 >0x0D TIF> >0x21 TIF> >0x0D TIF> >0x21 TIF> >0x0D TIF> >0x28 TIF> >0x0D TIF> >0x21 TIF> >0x0D TIF> >0x21 TIF> >0x10B TIF>Found SW-DP with ID 0x5BA02477 >0x0D TIF> >0x28 TIF> >0x0D TIF> >0x28 TIF> >0x0D TIF> >0x28 TIF> >0x0D TIF> >0x28 TIF> >0x0D TIF> >0x21 TIF> >0x0D TIF> >0x28 TIF>Scanning APs, stopping at first AHB-AP found. >0x0D TIF> >0x28 TIF> >0x0D TIF> >0x21 TIF> >0x0D TIF> >0x21 TIF>AP[0] IDR: 0x74770001 (AHB-AP) >0x0D TIF> >0x28 TIF> >0x0D TIF> >0x21 TIF> >0x0D TIF> >0x21 TIF>
AHB-AP ROM: 0xE00FD000 (Base addr. of first ROM table) >0x0D TIF> >0x28 TIF> >0x0D TIF> >0x28 TIF> >0x0D TIF> >0x28 TIF> >0x0D TIF> >0x21 TIF> >0x0D TIF> >0x21 TIF> >0x0D TIF> >0x28 TIF> >0x0D TIF> >0x21 TIF> >0x0D TIF> >0x21 TIF>CPUID reg: 0x410FC271. Implementer code: 0x41 (ARM)Found Cortex-M7 r0p1, Little endian. -- CPU_ReadMem(4 bytes @ 0xE000EDF0) -- CPU_WriteMem(4 bytes @ 0xE000EDF0) -- CPU_ReadMem(4 bytes @ 0xE0002000)FPUnit: 8 code (BP) slots and 0 literal slots
 -- CPU_ReadMem(4 bytes @ 0xE000EDFC) -- CPU_WriteMem(4 bytes @ 0xE000EDFC) -- CPU_ReadMem(4 bytes @ 0xE0001000) -- CPU_WriteMem(4 bytes @ 0xE0001000) -- CPU_ReadMem(4 bytes @ 0xE000ED88) -- CPU_WriteMem(4 bytes @ 0xE000ED88) -- CPU_ReadMem(4 bytes @ 0xE000ED88) -- CPU_WriteMem(4 bytes @ 0xE000ED88)CoreSight components:ROMTbl[0] @ E00FD000 -- CPU_ReadMem(16 bytes @ 0xE00FD000) -- CPU_ReadMem(16 bytes @ 0xE00FEFF0) -- CPU_ReadMem(16 bytes @ 0xE00FEFE0)
ROMTbl[0][0]: E00FE000, CID: B105100D, PID: 000BB4C8 ROM TableROMTbl[1] @ E00FE000 -- CPU_ReadMem(16 bytes @ 0xE00FE000) -- CPU_ReadMem(16 bytes @ 0xE00FFFF0) -- CPU_ReadMem(16 bytes @ 0xE00FFFE0)ROMTbl[1][0]: E00FF000, CID: B105100D, PID: 000BB4C7 ROM TableROMTbl[2] @ E00FF000 -- CPU_ReadMem(16 bytes @ 0xE00FF000) -- CPU_ReadMem(16 bytes @ 0xE000EFF0) -- CPU_ReadMem(16 bytes @ 0xE000EFE0)ROMTbl[2][0]: E000E000, CID: B105E00D, PID: 000BB00C SCS -- CPU_ReadMem(16 bytes @ 0xE0001FF0)
 -- CPU_ReadMem(16 bytes @ 0xE0001FE0)ROMTbl[2][1]: E0001000, CID: B105E00D, PID: 000BB002 DWT -- CPU_ReadMem(16 bytes @ 0xE0002FF0) -- CPU_ReadMem(16 bytes @ 0xE0002FE0)ROMTbl[2][2]: E0002000, CID: B105E00D, PID: 000BB00E FPB -- CPU_ReadMem(16 bytes @ 0xE0000FF0) -- CPU_ReadMem(16 bytes @ 0xE0000FE0)ROMTbl[2][3]: E0000000, CID: B105E00D, PID: 000BB001 ITM -- CPU_ReadMem(16 bytes @ 0xE00FF010) -- CPU_ReadMem(16 bytes @ 0xE0041FF0) -- CPU_ReadMem(16 bytes @ 0xE0041FE0)
ROMTbl[1][1]: E0041000, CID: B105900D, PID: 000BB975 ETM-M7 -- CPU_ReadMem(16 bytes @ 0xE00FE010) -- CPU_ReadMem(16 bytes @ 0xE0040FF0) -- CPU_ReadMem(16 bytes @ 0xE0040FE0)ROMTbl[0][1]: E0040000, CID: B105900D, PID: 000BB9A9 TPIU-M7 -- CPU_ReadMem(16 bytes @ 0xE00FD010) -- CPU_ReadMem(4 bytes @ 0xE000ED78)Cache: Separate I- and D-cache. (0138ms, 0500ms total)
T1F1C 000:362  -- CPU_WriteMem(4 bytes @ 0xE000ED84) -- CPU_ReadMem(4 bytes @ 0xE000ED80)I-Cache L1: 4 KB, 64 Sets, 32 Bytes/Line, 2-Way -- CPU_WriteMem(4 bytes @ 0xE000ED84) -- CPU_ReadMem(4 bytes @ 0xE000ED80)D-Cache L1: 4 KB, 32 Sets, 32 Bytes/Line, 4-Way >0x0D TIF> >0x21 TIF>  returns 0x5BA02477 (0147ms, 0509ms total)
T1F1C 000:509 JLINK_GetDLLVersion()  returns 61603 (0001ms, 0510ms total)
T1F1C 000:510 JLINK_CORE_GetFound()  returns 0xE0100FF (0000ms, 0510ms total)
T1F1C 000:510 JLINK_GetDebugInfo(0x100 = JLINKARM_ROM_TABLE_ADDR_INDEX) -- Value=0xE00FD000  returns 0x00 (0000ms, 0510ms total)
T1F1C 000:510 JLINK_GetDebugInfo(0x100 = JLINKARM_ROM_TABLE_ADDR_INDEX) -- Value=0xE00FD000  returns 0x00 (0000ms, 0510ms total)
T1F1C 000:510 JLINK_GetDebugInfo(0x101 = JLINKARM_DEBUG_INFO_ETM_ADDR_INDEX) -- Value=0xE0041000  returns 0x00 (0000ms, 0510ms total)
T1F1C 000:510 JLINK_ReadMemEx(0xE0041FD0, 0x0020 Bytes, ..., Flags = 0x02000004) -- CPU_ReadMem(32 bytes @ 0xE0041FD0) - Data: 04 00 00 00 00 00 00 00 00 00 00 00 00 00 00 00 ...  returns 0x20 (0000ms, 0510ms total)
T1F1C 000:510 JLINK_GetDebugInfo(0x102 = JLINKARM_DEBUG_INFO_MTB_ADDR_INDEX) -- Value=0x00000000  returns 0x00 (0000ms, 0510ms total)
T1F1C 000:510 JLINK_GetDebugInfo(0x103 = JLINKARM_DEBUG_INFO_TPIU_ADDR_INDEX) -- Value=0xE0040000  returns 0x00 (0000ms, 0510ms total)
T1F1C 000:511 JLINK_GetDebugInfo(0x104 = JLINKARM_DEBUG_INFO_ITM_ADDR_INDEX) -- Value=0xE0000000  returns 0x00 (0000ms, 0511ms total)
T1F1C 000:511 JLINK_GetDebugInfo(0x105 = JLINKARM_DEBUG_INFO_DWT_ADDR_INDEX) -- Value=0xE0001000  returns 0x00 (0000ms, 0511ms total)
T1F1C 000:511 JLINK_GetDebugInfo(0x106 = JLINKARM_DEBUG_INFO_FPB_ADDR_INDEX) -- Value=0xE0002000  returns 0x00 (0000ms, 0511ms total)
T1F1C 000:511 JLINK_GetDebugInfo(0x107 = JLINKARM_DEBUG_INFO_NVIC_ADDR_INDEX) -- Value=0xE000E000  returns 0x00 (0000ms, 0511ms total)
T1F1C 000:511 JLINK_GetDebugInfo(0x10C = JLINKARM_DEBUG_INFO_DBG_ADDR_INDEX) -- Value=0xE000EDF0  returns 0x00 (0000ms, 0511ms total)
T1F1C 000:511 JLINK_ReadMemU32(0xE000ED00, 0x0001 Items, ...) -- CPU_ReadMem(4 bytes @ 0xE000ED00) - Data: 71 C2 0F 41  returns 0x01 (0000ms, 0511ms total)
T1F1C 000:511 JLINK_GetDebugInfo(0x10F = JLINKARM_DEBUG_INFO_HAS_CORTEX_M_SECURITY_EXT_INDEX) -- Value=0x00000000  returns 0x00 (0000ms, 0511ms total)
T1F1C 000:511 JLINK_SetResetType(JLINKARM_CM3_RESET_TYPE_NORMAL)  returns JLINKARM_CM3_RESET_TYPE_NORMAL (0000ms, 0511ms total)
T1F1C 000:512 JLINK_Reset() -- CPU is running -- CPU_WriteMem(4 bytes @ 0xE000EDF0) -- CPU is running -- CPU_WriteMem(4 bytes @ 0xE000EDFC) >0x35 TIF>Setting AIRCR.SYSRESETREQ -- CPU is running -- CPU_WriteMem(4 bytes @ 0xE000ED0C) >0x0D TIF> >0x28 TIF> -- CPU_ReadMem(4 bytes @ 0xE000ED0C) -- CPU_ReadMem(4 bytes @ 0xE000EDF0) -- CPU_ReadMem(4 bytes @ 0xE000EDF0) -- CPU_ReadMem(4 bytes @ 0xE000EDF0) -- CPU is running -- CPU_WriteMem(4 bytes @ 0xE000EDF0) -- CPU is running
 -- CPU_WriteMem(4 bytes @ 0xE000EDFC) -- CPU_ReadMem(4 bytes @ 0xE000EDF0) -- CPU_WriteMem(4 bytes @ 0xE0002000) -- CPU_ReadMem(4 bytes @ 0xE000EDFC) -- CPU_ReadMem(4 bytes @ 0xE0001000) (0074ms, 0585ms total)
T1F1C 000:586 JLINK_ReadReg(R15 (PC))  returns 0xFFFFFFFE (0000ms, 0585ms total)
T1F1C 000:586 JLINK_ReadReg(XPSR)  returns 0x01000000 (0000ms, 0585ms total)
T1F1C 000:586 JLINK_Halt()  returns 0x00 (0000ms, 0585ms total)
T1F1C 000:586 JLINK_ReadMemU32(0xE000EDF0, 0x0001 Items, ...) -- CPU_ReadMem(4 bytes @ 0xE000EDF0) - Data: 03 00 03 00  returns 0x01 (0001ms, 0586ms total)
T1F1C 000:587 JLINK_WriteU32(0xE000EDF0, 0xA05F0003) -- CPU_WriteMem(4 bytes @ 0xE000EDF0)  returns 0x00 (0001ms, 0587ms total)
T1F1C 000:588 JLINK_WriteU32(0xE000EDFC, 0x01000000) -- CPU_WriteMem(4 bytes @ 0xE000EDFC)  returns 0x00 (0002ms, 0589ms total)
T1F1C 000:590 JLINK_GetHWStatus(...)  returns 0x00 (0001ms, 0590ms total)
T1F1C 000:591 JLINK_GetNumBPUnits(Type = 0xFFFFFF00)  returns 0x08 (0000ms, 0590ms total)
T1F1C 000:591 JLINK_GetNumBPUnits(Type = 0xF0)  returns 0x2000 (0000ms, 0590ms total)
T1F1C 000:591 JLINK_GetNumWPUnits()  returns 0x04 (0000ms, 0590ms total)
T1F1C 000:591 JLINK_GetSpeed()  returns 0xFA0 (0000ms, 0590ms total)
T1F1C 000:591 JLINK_ReadMemU32(0xE000E004, 0x0001 Items, ...) -- CPU_ReadMem(4 bytes @ 0xE000E004) - Data: 03 00 00 00  returns 0x01 (0001ms, 0591ms total)
T1F1C 000:592 JLINK_ReadMemU32(0xE000E004, 0x0001 Items, ...) -- CPU_ReadMem(4 bytes @ 0xE000E004) - Data: 03 00 00 00  returns 0x01 (0001ms, 0592ms total)
T1F1C 000:593 JLINK_WriteMemEx(0xE0001000, 0x001C Bytes, ..., Flags = 0x02000004) - Data: 01 00 00 00 00 00 00 00 00 00 00 00 00 00 00 00 ... -- CPU_WriteMem(28 bytes @ 0xE0001000)  returns 0x1C (0004ms, 0596ms total)
T1F1C 000:597 JLINK_ReadReg(R15 (PC))  returns 0xFFFFFFFE (0000ms, 0596ms total)
T1F1C 000:597 JLINK_ReadReg(XPSR)  returns 0x01000000 (0000ms, 0596ms total)
T1F1C 000:896 JLINK_SetResetType(JLINKARM_CM3_RESET_TYPE_NORMAL)  returns JLINKARM_CM3_RESET_TYPE_NORMAL (0000ms, 0596ms total)
T1F1C 000:896 JLINK_Reset() -- CPU_WriteMem(4 bytes @ 0xE000EDF0) -- CPU_WriteMem(4 bytes @ 0xE000EDFC) >0x35 TIF>Setting AIRCR.SYSRESETREQ -- CPU_WriteMem(4 bytes @ 0xE000ED0C) >0x0D TIF> >0x28 TIF> -- CPU_ReadMem(4 bytes @ 0xE000ED0C) -- CPU_ReadMem(4 bytes @ 0xE000EDF0) -- CPU_ReadMem(4 bytes @ 0xE000EDF0) -- CPU_ReadMem(4 bytes @ 0xE000EDF0) -- CPU_WriteMem(4 bytes @ 0xE000EDF0) -- CPU_WriteMem(4 bytes @ 0xE000EDFC) -- CPU_ReadMem(4 bytes @ 0xE000EDF0) -- CPU_WriteMem(4 bytes @ 0xE0002000)
 -- CPU_ReadMem(4 bytes @ 0xE000EDFC) -- CPU_ReadMem(4 bytes @ 0xE0001000) (0074ms, 0670ms total)
T1F1C 000:970 JLINK_ReadReg(R15 (PC))  returns 0xFFFFFFFE (0000ms, 0670ms total)
T1F1C 000:970 JLINK_ReadReg(XPSR)  returns 0x01000000 (0000ms, 0670ms total)
T1F1C 000:970 JLINK_ReadMemEx(0xFFFFFFFE, 0x0002 Bytes, ..., Flags = 0x02000000) -- CPU_ReadMem(2 bytes @ 0xFFFFFFFE) - Data: AA AA  returns 0xFFFFFFFF (0002ms, 0672ms total)
T1F1C 001:141 JLINK_ReadMemEx(0xA0000000, 0x001C Bytes, ..., Flags = 0x02000004) -- CPU_ReadMem(28 bytes @ 0xA0000000) - Data: 00 00 00 00 00 00 00 00 00 00 00 00 00 00 00 00 ...  returns 0x1C (0002ms, 0674ms total)
T1F1C 001:143 JLINK_ReadMemEx(0xA0000000, 0x0004 Bytes, ..., Flags = 0x02000004) -- CPU_ReadMem(4 bytes @ 0xA0000000) - Data: 00 00 00 00  returns 0x04 (0001ms, 0675ms total)
T1F1C 001:144 JLINK_ReadMemEx(0xA0000004, 0x0004 Bytes, ..., Flags = 0x02000004) -- CPU_ReadMem(4 bytes @ 0xA0000004) - Data: 00 00 00 00  returns 0x04 (0001ms, 0676ms total)
T1F1C 001:145 JLINK_ReadMemEx(0xA0000008, 0x0004 Bytes, ..., Flags = 0x02000004) -- CPU_ReadMem(4 bytes @ 0xA0000008) - Data: 00 00 00 00  returns 0x04 (0001ms, 0677ms total)
T1F1C 001:146 JLINK_ReadMemEx(0xA000000C, 0x0004 Bytes, ..., Flags = 0x02000004) -- CPU_ReadMem(4 bytes @ 0xA000000C) - Data: 00 00 00 00  returns 0x04 (0001ms, 0678ms total)
T1F1C 001:147 JLINK_ReadMemEx(0xA0000010, 0x0004 Bytes, ..., Flags = 0x02000004) -- CPU_ReadMem(4 bytes @ 0xA0000010) - Data: 00 00 00 00  returns 0x04 (0001ms, 0679ms total)
T1F1C 001:148 JLINK_ReadMemEx(0xA0000014, 0x0004 Bytes, ..., Flags = 0x02000004) -- CPU_ReadMem(4 bytes @ 0xA0000014) - Data: 00 00 00 00  returns 0x04 (0001ms, 0680ms total)
T1F1C 001:149 JLINK_ReadMemEx(0xA0000018, 0x0004 Bytes, ..., Flags = 0x02000004) -- CPU_ReadMem(4 bytes @ 0xA0000018) - Data: 00 00 00 00  returns 0x04 (0001ms, 0681ms total)
T1F1C 001:150 JLINK_ReadMemEx(0xA000001C, 0x0004 Bytes, ..., Flags = 0x02000004) -- CPU_ReadMem(4 bytes @ 0xA000001C) - Data: 00 00 00 00  returns 0x04 (0001ms, 0682ms total)
T1F1C 001:151 JLINK_ReadMemEx(0xA000001C, 0x0004 Bytes, ..., Flags = 0x02000004) -- CPU_ReadMem(4 bytes @ 0xA000001C) - Data: 00 00 00 00  returns 0x04 (0001ms, 0683ms total)
T1F1C 001:152 JLINK_ReadMemEx(0xA0000080, 0x000C Bytes, ..., Flags = 0x02000004) -- CPU_ReadMem(12 bytes @ 0xA0000080) - Data: 00 00 00 00 00 00 00 00 00 00 00 00  returns 0x0C (0001ms, 0684ms total)
T1F1C 001:153 JLINK_ReadMemEx(0xA0000080, 0x0004 Bytes, ..., Flags = 0x02000004) -- CPU_ReadMem(4 bytes @ 0xA0000080) - Data: 00 00 00 00  returns 0x04 (0001ms, 0685ms total)
T1F1C 001:154 JLINK_ReadMemEx(0xA0000084, 0x0004 Bytes, ..., Flags = 0x02000004) -- CPU_ReadMem(4 bytes @ 0xA0000084) - Data: 00 00 00 00  returns 0x04 (0001ms, 0686ms total)
T1F1C 001:155 JLINK_ReadMemEx(0xA0000088, 0x0004 Bytes, ..., Flags = 0x02000004) -- CPU_ReadMem(4 bytes @ 0xA0000088) - Data: 00 00 00 00  returns 0x04 (0001ms, 0687ms total)
T1F1C 001:156 JLINK_ReadMemEx(0xA000008C, 0x0004 Bytes, ..., Flags = 0x02000004) -- CPU_ReadMem(4 bytes @ 0xA000008C) - Data: 00 00 00 00  returns 0x04 (0001ms, 0688ms total)
T1F1C 001:157 JLINK_ReadMemEx(0xA000008C, 0x0004 Bytes, ..., Flags = 0x02000004) -- CPU_ReadMem(4 bytes @ 0xA000008C) - Data: 00 00 00 00  returns 0x04 (0001ms, 0689ms total)
T1F1C 001:158 JLINK_ReadMemEx(0xA0000094, 0x0004 Bytes, ..., Flags = 0x02000004) -- CPU_ReadMem(4 bytes @ 0xA0000094) - Data: 00 00 00 00  returns 0x04 (0001ms, 0690ms total)
T1F1C 001:159 JLINK_ReadMemEx(0xA0000094, 0x0004 Bytes, ..., Flags = 0x02000004) -- CPU_ReadMem(4 bytes @ 0xA0000094) - Data: 00 00 00 00  returns 0x04 (0001ms, 0691ms total)
T1F1C 001:160 JLINK_ReadMemEx(0xA0000104, 0x0004 Bytes, ..., Flags = 0x02000004) -- CPU_ReadMem(4 bytes @ 0xA0000104) - Data: 00 00 00 00  returns 0x04 (0001ms, 0692ms total)
T1F1C 001:161 JLINK_ReadMemEx(0xA0000104, 0x0004 Bytes, ..., Flags = 0x02000004) -- CPU_ReadMem(4 bytes @ 0xA0000104) - Data: 00 00 00 00  returns 0x04 (0001ms, 0693ms total)
T1F1C 001:162 JLINK_ReadMemEx(0xA000010C, 0x0004 Bytes, ..., Flags = 0x02000004) -- CPU_ReadMem(4 bytes @ 0xA000010C) - Data: 00 00 00 00  returns 0x04 (0001ms, 0694ms total)
T1F1C 001:163 JLINK_ReadMemEx(0xA000010C, 0x0004 Bytes, ..., Flags = 0x02000004) -- CPU_ReadMem(4 bytes @ 0xA000010C) - Data: 00 00 00 00  returns 0x04 (0001ms, 0695ms total)
T1F1C 001:164 JLINK_ReadMemEx(0xA0000114, 0x0004 Bytes, ..., Flags = 0x02000004) -- CPU_ReadMem(4 bytes @ 0xA0000114) - Data: 00 00 00 00  returns 0x04 (0001ms, 0696ms total)
T1F1C 001:165 JLINK_ReadMemEx(0xA0000114, 0x0004 Bytes, ..., Flags = 0x02000004) -- CPU_ReadMem(4 bytes @ 0xA0000114) - Data: 00 00 00 00  returns 0x04 (0001ms, 0697ms total)
T1F1C 001:166 JLINK_ReadMemEx(0xA000011C, 0x0004 Bytes, ..., Flags = 0x02000004) -- CPU_ReadMem(4 bytes @ 0xA000011C) - Data: 00 00 00 00  returns 0x04 (0001ms, 0698ms total)
T1F1C 001:167 JLINK_ReadMemEx(0xA000011C, 0x0004 Bytes, ..., Flags = 0x02000004) -- CPU_ReadMem(4 bytes @ 0xA000011C) - Data: 00 00 00 00  returns 0x04 (0001ms, 0699ms total)
T1F1C 001:168 JLINK_ReadMemEx(0xA0000140, 0x0018 Bytes, ..., Flags = 0x02000004) -- CPU_ReadMem(24 bytes @ 0xA0000140) - Data: 00 00 00 00 00 00 00 00 00 00 00 00 00 00 00 00 ...  returns 0x18 (0001ms, 0700ms total)
T1F1C 001:169 JLINK_ReadMemEx(0xA0000140, 0x0004 Bytes, ..., Flags = 0x02000004) -- CPU_ReadMem(4 bytes @ 0xA0000140) - Data: 00 00 00 00  returns 0x04 (0001ms, 0701ms total)
T1F1C 001:170 JLINK_ReadMemEx(0xA0000144, 0x0004 Bytes, ..., Flags = 0x02000004) -- CPU_ReadMem(4 bytes @ 0xA0000144) - Data: 00 00 00 00  returns 0x04 (0001ms, 0702ms total)
T1F1C 001:171 JLINK_ReadMemEx(0xA0000148, 0x0004 Bytes, ..., Flags = 0x02000004) -- CPU_ReadMem(4 bytes @ 0xA0000148) - Data: 00 00 00 00  returns 0x04 (0001ms, 0703ms total)
T1F1C 001:172 JLINK_ReadMemEx(0xA000014C, 0x0004 Bytes, ..., Flags = 0x02000004) -- CPU_ReadMem(4 bytes @ 0xA000014C) - Data: 00 00 00 00  returns 0x04 (0001ms, 0704ms total)
T1F1C 001:173 JLINK_ReadMemEx(0xA0000150, 0x0004 Bytes, ..., Flags = 0x02000004) -- CPU_ReadMem(4 bytes @ 0xA0000150) - Data: 00 00 00 00  returns 0x04 (0001ms, 0705ms total)
T1F1C 001:174 JLINK_ReadMemEx(0xA0000154, 0x0004 Bytes, ..., Flags = 0x02000004) -- CPU_ReadMem(4 bytes @ 0xA0000154) - Data: 00 00 00 00  returns 0x04 (0001ms, 0706ms total)
T1F1C 001:175 JLINK_ReadMemEx(0xA0000158, 0x0004 Bytes, ..., Flags = 0x02000004) -- CPU_ReadMem(4 bytes @ 0xA0000158) - Data: 00 00 00 00  returns 0x04 (0001ms, 0707ms total)
T1F1C 001:176 JLINK_ReadMemEx(0xA0000158, 0x0004 Bytes, ..., Flags = 0x02000004) -- CPU_ReadMem(4 bytes @ 0xA0000158) - Data: 00 00 00 00  returns 0x04 (0019ms, 0726ms total)
T1F1C 001:325 JLINK_ReadMemEx(0x40020000, 0x0014 Bytes, ..., Flags = 0x02000004) -- CPU_ReadMem(20 bytes @ 0x40020000) - Data: 00 00 00 A8 00 00 00 A8 00 00 00 A8 00 00 00 A8 ...  returns 0x14 (0002ms, 0728ms total)
T1F1C 001:327 JLINK_ReadMemEx(0x40020000, 0x0004 Bytes, ..., Flags = 0x02000004) -- CPU_ReadMem(4 bytes @ 0x40020000) - Data: 00 00 00 A8  returns 0x04 (0001ms, 0729ms total)
T1F1C 001:328 JLINK_ReadMemEx(0x40020004, 0x0004 Bytes, ..., Flags = 0x02000004) -- CPU_ReadMem(4 bytes @ 0x40020004) - Data: 00 00 00 A8  returns 0x04 (0001ms, 0730ms total)
T1F1C 001:329 JLINK_ReadMemEx(0x40020008, 0x0004 Bytes, ..., Flags = 0x02000004) -- CPU_ReadMem(4 bytes @ 0x40020008) - Data: 00 00 00 A8  returns 0x04 (0001ms, 0731ms total)
T1F1C 001:330 JLINK_ReadMemEx(0x4002000C, 0x0004 Bytes, ..., Flags = 0x02000004) -- CPU_ReadMem(4 bytes @ 0x4002000C) - Data: 00 00 00 A8  returns 0x04 (0001ms, 0732ms total)
T1F1C 001:331 JLINK_ReadMemEx(0x40020010, 0x0004 Bytes, ..., Flags = 0x02000004) -- CPU_ReadMem(4 bytes @ 0x40020010) - Data: 00 00 00 A8  returns 0x04 (0001ms, 0733ms total)
T1F1C 001:332 JLINK_ReadMemEx(0x40020014, 0x0004 Bytes, ..., Flags = 0x02000004) -- CPU_ReadMem(4 bytes @ 0x40020014) - Data: 00 00 00 A8  returns 0x04 (0001ms, 0734ms total)
T1F1C 001:333 JLINK_ReadMemEx(0x40020014, 0x0004 Bytes, ..., Flags = 0x02000004) -- CPU_ReadMem(4 bytes @ 0x40020014) - Data: 00 00 00 A8  returns 0x04 (0001ms, 0735ms total)
T1F1C 001:334 JLINK_ReadMemEx(0x4002001C, 0x000C Bytes, ..., Flags = 0x02000004) -- CPU_ReadMem(12 bytes @ 0x4002001C) - Data: 00 00 00 A8 00 00 00 A8 00 00 00 A8  returns 0x0C (0001ms, 0736ms total)
T1F1C 001:335 JLINK_ReadMemEx(0x4002001C, 0x0004 Bytes, ..., Flags = 0x02000004) -- CPU_ReadMem(4 bytes @ 0x4002001C) - Data: 00 00 00 A8  returns 0x04 (0001ms, 0737ms total)
T1F1C 001:336 JLINK_ReadMemEx(0x40020020, 0x0004 Bytes, ..., Flags = 0x02000004) -- CPU_ReadMem(4 bytes @ 0x40020020) - Data: 00 00 00 A8  returns 0x04 (0001ms, 0738ms total)
T1F1C 001:337 JLINK_ReadMemEx(0x40020024, 0x0004 Bytes, ..., Flags = 0x02000004) -- CPU_ReadMem(4 bytes @ 0x40020024) - Data: 00 00 00 A8  returns 0x04 (0001ms, 0739ms total)
T1F1C 001:338 JLINK_ReadMemEx(0x40020028, 0x0004 Bytes, ..., Flags = 0x02000004) -- CPU_ReadMem(4 bytes @ 0x40020028) - Data: 00 00 00 A8  returns 0x04 (0001ms, 0740ms total)
T1F1C 001:339 JLINK_ReadMemEx(0x40020028, 0x0004 Bytes, ..., Flags = 0x02000004) -- CPU_ReadMem(4 bytes @ 0x40020028) - Data: 00 00 00 A8  returns 0x04 (0001ms, 0741ms total)
T1F1C 001:438 JLINK_ReadMemEx(0x40020800, 0x0014 Bytes, ..., Flags = 0x02000004) -- CPU_ReadMem(20 bytes @ 0x40020800) - Data: 00 00 00 00 00 00 00 00 00 00 00 00 00 00 00 00 ...  returns 0x14 (0002ms, 0743ms total)
T1F1C 001:440 JLINK_ReadMemEx(0x40020800, 0x0004 Bytes, ..., Flags = 0x02000004) -- CPU_ReadMem(4 bytes @ 0x40020800) - Data: 00 00 00 00  returns 0x04 (0001ms, 0744ms total)
T1F1C 001:441 JLINK_ReadMemEx(0x40020804, 0x0004 Bytes, ..., Flags = 0x02000004) -- CPU_ReadMem(4 bytes @ 0x40020804) - Data: 00 00 00 00  returns 0x04 (0001ms, 0745ms total)
T1F1C 001:442 JLINK_ReadMemEx(0x40020808, 0x0004 Bytes, ..., Flags = 0x02000004) -- CPU_ReadMem(4 bytes @ 0x40020808) - Data: 00 00 00 00  returns 0x04 (0001ms, 0746ms total)
T1F1C 001:443 JLINK_ReadMemEx(0x4002080C, 0x0004 Bytes, ..., Flags = 0x02000004) -- CPU_ReadMem(4 bytes @ 0x4002080C) - Data: 00 00 00 00  returns 0x04 (0001ms, 0747ms total)
T1F1C 001:444 JLINK_ReadMemEx(0x40020810, 0x0004 Bytes, ..., Flags = 0x02000004) -- CPU_ReadMem(4 bytes @ 0x40020810) - Data: 00 00 00 00  returns 0x04 (0001ms, 0748ms total)
T1F1C 001:445 JLINK_ReadMemEx(0x40020814, 0x0004 Bytes, ..., Flags = 0x02000004) -- CPU_ReadMem(4 bytes @ 0x40020814) - Data: 00 00 00 00  returns 0x04 (0001ms, 0749ms total)
T1F1C 001:446 JLINK_ReadMemEx(0x40020814, 0x0004 Bytes, ..., Flags = 0x02000004) -- CPU_ReadMem(4 bytes @ 0x40020814) - Data: 00 00 00 00  returns 0x04 (0001ms, 0750ms total)
T1F1C 001:447 JLINK_ReadMemEx(0x4002081C, 0x000C Bytes, ..., Flags = 0x02000004) -- CPU_ReadMem(12 bytes @ 0x4002081C) - Data: 00 00 00 00 00 00 00 00 00 00 00 00  returns 0x0C (0001ms, 0751ms total)
T1F1C 001:448 JLINK_ReadMemEx(0x4002081C, 0x0004 Bytes, ..., Flags = 0x02000004) -- CPU_ReadMem(4 bytes @ 0x4002081C) - Data: 00 00 00 00  returns 0x04 (0001ms, 0752ms total)
T1F1C 001:449 JLINK_ReadMemEx(0x40020820, 0x0004 Bytes, ..., Flags = 0x02000004) -- CPU_ReadMem(4 bytes @ 0x40020820) - Data: 00 00 00 00  returns 0x04 (0001ms, 0753ms total)
T1F1C 001:450 JLINK_ReadMemEx(0x40020824, 0x0004 Bytes, ..., Flags = 0x02000004) -- CPU_ReadMem(4 bytes @ 0x40020824) - Data: 00 00 00 00  returns 0x04 (0004ms, 0757ms total)
T1F1C 001:454 JLINK_ReadMemEx(0x40020828, 0x0004 Bytes, ..., Flags = 0x02000004) -- CPU_ReadMem(4 bytes @ 0x40020828) - Data: 00 00 00 00  returns 0x04 (0001ms, 0758ms total)
T1F1C 001:455 JLINK_ReadMemEx(0x40020828, 0x0004 Bytes, ..., Flags = 0x02000004) -- CPU_ReadMem(4 bytes @ 0x40020828) - Data: 00 00 00 00  returns 0x04 (0001ms, 0759ms total)
T1F1C 001:556 JLINK_ReadMemEx(0x40020C00, 0x0014 Bytes, ..., Flags = 0x02000004) -- CPU_ReadMem(20 bytes @ 0x40020C00) - Data: 00 00 00 00 00 00 00 00 00 00 00 00 00 00 00 00 ...  returns 0x14 (0001ms, 0760ms total)
T1F1C 001:557 JLINK_ReadMemEx(0x40020C00, 0x0004 Bytes, ..., Flags = 0x02000004) -- CPU_ReadMem(4 bytes @ 0x40020C00) - Data: 00 00 00 00  returns 0x04 (0001ms, 0761ms total)
T1F1C 001:558 JLINK_ReadMemEx(0x40020C04, 0x0004 Bytes, ..., Flags = 0x02000004) -- CPU_ReadMem(4 bytes @ 0x40020C04) - Data: 00 00 00 00  returns 0x04 (0002ms, 0763ms total)
T1F1C 001:560 JLINK_ReadMemEx(0x40020C08, 0x0004 Bytes, ..., Flags = 0x02000004) -- CPU_ReadMem(4 bytes @ 0x40020C08) - Data: 00 00 00 00  returns 0x04 (0000ms, 0763ms total)
T1F1C 001:560 JLINK_ReadMemEx(0x40020C0C, 0x0004 Bytes, ..., Flags = 0x02000004) -- CPU_ReadMem(4 bytes @ 0x40020C0C) - Data: 00 00 00 00  returns 0x04 (0001ms, 0764ms total)
T1F1C 001:561 JLINK_ReadMemEx(0x40020C10, 0x0004 Bytes, ..., Flags = 0x02000004) -- CPU_ReadMem(4 bytes @ 0x40020C10) - Data: 00 00 00 00  returns 0x04 (0001ms, 0765ms total)
T1F1C 001:562 JLINK_ReadMemEx(0x40020C14, 0x0004 Bytes, ..., Flags = 0x02000004) -- CPU_ReadMem(4 bytes @ 0x40020C14) - Data: 00 00 00 00  returns 0x04 (0001ms, 0766ms total)
T1F1C 001:563 JLINK_ReadMemEx(0x40020C14, 0x0004 Bytes, ..., Flags = 0x02000004) -- CPU_ReadMem(4 bytes @ 0x40020C14) - Data: 00 00 00 00  returns 0x04 (0001ms, 0767ms total)
T1F1C 001:564 JLINK_ReadMemEx(0x40020C1C, 0x000C Bytes, ..., Flags = 0x02000004) -- CPU_ReadMem(12 bytes @ 0x40020C1C) - Data: 00 00 00 00 00 00 00 00 00 00 00 00  returns 0x0C (0001ms, 0768ms total)
T1F1C 001:565 JLINK_ReadMemEx(0x40020C1C, 0x0004 Bytes, ..., Flags = 0x02000004) -- CPU_ReadMem(4 bytes @ 0x40020C1C) - Data: 00 00 00 00  returns 0x04 (0001ms, 0769ms total)
T1F1C 001:566 JLINK_ReadMemEx(0x40020C20, 0x0004 Bytes, ..., Flags = 0x02000004) -- CPU_ReadMem(4 bytes @ 0x40020C20) - Data: 00 00 00 00  returns 0x04 (0001ms, 0770ms total)
T1F1C 001:567 JLINK_ReadMemEx(0x40020C24, 0x0004 Bytes, ..., Flags = 0x02000004) -- CPU_ReadMem(4 bytes @ 0x40020C24) - Data: 00 00 00 00  returns 0x04 (0001ms, 0771ms total)
T1F1C 001:568 JLINK_ReadMemEx(0x40020C28, 0x0004 Bytes, ..., Flags = 0x02000004) -- CPU_ReadMem(4 bytes @ 0x40020C28) - Data: 00 00 00 00  returns 0x04 (0001ms, 0772ms total)
T1F1C 001:569 JLINK_ReadMemEx(0x40020C28, 0x0004 Bytes, ..., Flags = 0x02000004) -- CPU_ReadMem(4 bytes @ 0x40020C28) - Data: 00 00 00 00  returns 0x04 (0001ms, 0773ms total)
T1F1C 001:669 JLINK_ReadMemEx(0x40021000, 0x0014 Bytes, ..., Flags = 0x02000004) -- CPU_ReadMem(20 bytes @ 0x40021000) - Data: 00 00 00 00 00 00 00 00 00 00 00 00 00 00 00 00 ...  returns 0x14 (0002ms, 0775ms total)
T1F1C 001:671 JLINK_ReadMemEx(0x40021000, 0x0004 Bytes, ..., Flags = 0x02000004) -- CPU_ReadMem(4 bytes @ 0x40021000) - Data: 00 00 00 00  returns 0x04 (0001ms, 0776ms total)
T1F1C 001:672 JLINK_ReadMemEx(0x40021004, 0x0004 Bytes, ..., Flags = 0x02000004) -- CPU_ReadMem(4 bytes @ 0x40021004) - Data: 00 00 00 00  returns 0x04 (0001ms, 0777ms total)
T1F1C 001:673 JLINK_ReadMemEx(0x40021008, 0x0004 Bytes, ..., Flags = 0x02000004) -- CPU_ReadMem(4 bytes @ 0x40021008) - Data: 00 00 00 00  returns 0x04 (0001ms, 0778ms total)
T1F1C 001:674 JLINK_ReadMemEx(0x4002100C, 0x0004 Bytes, ..., Flags = 0x02000004) -- CPU_ReadMem(4 bytes @ 0x4002100C) - Data: 00 00 00 00  returns 0x04 (0001ms, 0779ms total)
T1F1C 001:675 JLINK_ReadMemEx(0x40021010, 0x0004 Bytes, ..., Flags = 0x02000004) -- CPU_ReadMem(4 bytes @ 0x40021010) - Data: 00 00 00 00  returns 0x04 (0001ms, 0780ms total)
T1F1C 001:676 JLINK_ReadMemEx(0x40021014, 0x0004 Bytes, ..., Flags = 0x02000004) -- CPU_ReadMem(4 bytes @ 0x40021014) - Data: 00 00 00 00  returns 0x04 (0001ms, 0781ms total)
T1F1C 001:677 JLINK_ReadMemEx(0x40021014, 0x0004 Bytes, ..., Flags = 0x02000004) -- CPU_ReadMem(4 bytes @ 0x40021014) - Data: 00 00 00 00  returns 0x04 (0001ms, 0782ms total)
T1F1C 001:678 JLINK_ReadMemEx(0x4002101C, 0x000C Bytes, ..., Flags = 0x02000004) -- CPU_ReadMem(12 bytes @ 0x4002101C) - Data: 00 00 00 00 00 00 00 00 00 00 00 00  returns 0x0C (0001ms, 0783ms total)
T1F1C 001:679 JLINK_ReadMemEx(0x4002101C, 0x0004 Bytes, ..., Flags = 0x02000004) -- CPU_ReadMem(4 bytes @ 0x4002101C) - Data: 00 00 00 00  returns 0x04 (0001ms, 0784ms total)
T1F1C 001:680 JLINK_ReadMemEx(0x40021020, 0x0004 Bytes, ..., Flags = 0x02000004) -- CPU_ReadMem(4 bytes @ 0x40021020) - Data: 00 00 00 00  returns 0x04 (0001ms, 0785ms total)
T1F1C 001:681 JLINK_ReadMemEx(0x40021024, 0x0004 Bytes, ..., Flags = 0x02000004) -- CPU_ReadMem(4 bytes @ 0x40021024) - Data: 00 00 00 00  returns 0x04 (0001ms, 0786ms total)
T1F1C 001:682 JLINK_ReadMemEx(0x40021028, 0x0004 Bytes, ..., Flags = 0x02000004) -- CPU_ReadMem(4 bytes @ 0x40021028) - Data: 00 00 00 00  returns 0x04 (0001ms, 0787ms total)
T1F1C 001:683 JLINK_ReadMemEx(0x40021028, 0x0004 Bytes, ..., Flags = 0x02000004) -- CPU_ReadMem(4 bytes @ 0x40021028) - Data: 00 00 00 00  returns 0x04 (0001ms, 0788ms total)
T1F1C 001:787 JLINK_ReadMemEx(0x40021800, 0x0014 Bytes, ..., Flags = 0x02000004) -- CPU_ReadMem(20 bytes @ 0x40021800) - Data: 00 00 00 00 00 00 00 00 00 00 00 00 00 00 00 00 ...  returns 0x14 (0001ms, 0789ms total)
T1F1C 001:788 JLINK_ReadMemEx(0x40021800, 0x0004 Bytes, ..., Flags = 0x02000004) -- CPU_ReadMem(4 bytes @ 0x40021800) - Data: 00 00 00 00  returns 0x04 (0001ms, 0790ms total)
T1F1C 001:789 JLINK_ReadMemEx(0x40021804, 0x0004 Bytes, ..., Flags = 0x02000004) -- CPU_ReadMem(4 bytes @ 0x40021804) - Data: 00 00 00 00  returns 0x04 (0001ms, 0791ms total)
T1F1C 001:790 JLINK_ReadMemEx(0x40021808, 0x0004 Bytes, ..., Flags = 0x02000004) -- CPU_ReadMem(4 bytes @ 0x40021808) - Data: 00 00 00 00  returns 0x04 (0001ms, 0792ms total)
T1F1C 001:791 JLINK_ReadMemEx(0x4002180C, 0x0004 Bytes, ..., Flags = 0x02000004) -- CPU_ReadMem(4 bytes @ 0x4002180C) - Data: 00 00 00 00  returns 0x04 (0001ms, 0793ms total)
T1F1C 001:792 JLINK_ReadMemEx(0x40021810, 0x0004 Bytes, ..., Flags = 0x02000004) -- CPU_ReadMem(4 bytes @ 0x40021810) - Data: 00 00 00 00  returns 0x04 (0001ms, 0794ms total)
T1F1C 001:793 JLINK_ReadMemEx(0x40021814, 0x0004 Bytes, ..., Flags = 0x02000004) -- CPU_ReadMem(4 bytes @ 0x40021814) - Data: 00 00 00 00  returns 0x04 (0001ms, 0795ms total)
T1F1C 001:794 JLINK_ReadMemEx(0x40021814, 0x0004 Bytes, ..., Flags = 0x02000004) -- CPU_ReadMem(4 bytes @ 0x40021814) - Data: 00 00 00 00  returns 0x04 (0001ms, 0796ms total)
T1F1C 001:795 JLINK_ReadMemEx(0x4002181C, 0x000C Bytes, ..., Flags = 0x02000004) -- CPU_ReadMem(12 bytes @ 0x4002181C) - Data: 00 00 00 00 00 00 00 00 00 00 00 00  returns 0x0C (0002ms, 0798ms total)
T1F1C 001:797 JLINK_ReadMemEx(0x4002181C, 0x0004 Bytes, ..., Flags = 0x02000004) -- CPU_ReadMem(4 bytes @ 0x4002181C) - Data: 00 00 00 00  returns 0x04 (0000ms, 0798ms total)
T1F1C 001:797 JLINK_ReadMemEx(0x40021820, 0x0004 Bytes, ..., Flags = 0x02000004) -- CPU_ReadMem(4 bytes @ 0x40021820) - Data: 00 00 00 00  returns 0x04 (0001ms, 0799ms total)
T1F1C 001:798 JLINK_ReadMemEx(0x40021824, 0x0004 Bytes, ..., Flags = 0x02000004) -- CPU_ReadMem(4 bytes @ 0x40021824) - Data: 00 00 00 00  returns 0x04 (0001ms, 0800ms total)
T1F1C 001:799 JLINK_ReadMemEx(0x40021828, 0x0004 Bytes, ..., Flags = 0x02000004) -- CPU_ReadMem(4 bytes @ 0x40021828) - Data: 00 00 00 00  returns 0x04 (0001ms, 0801ms total)
T1F1C 001:800 JLINK_ReadMemEx(0x40021828, 0x0004 Bytes, ..., Flags = 0x02000004) -- CPU_ReadMem(4 bytes @ 0x40021828) - Data: 00 00 00 00  returns 0x04 (0001ms, 0802ms total)
T1F1C 001:903 JLINK_ReadMemEx(0x40021C00, 0x0014 Bytes, ..., Flags = 0x02000004) -- CPU_ReadMem(20 bytes @ 0x40021C00) - Data: 00 00 00 00 00 00 00 00 00 00 00 00 00 00 00 00 ...  returns 0x14 (0001ms, 0803ms total)
T1F1C 001:904 JLINK_ReadMemEx(0x40021C00, 0x0004 Bytes, ..., Flags = 0x02000004) -- CPU_ReadMem(4 bytes @ 0x40021C00) - Data: 00 00 00 00  returns 0x04 (0001ms, 0804ms total)
T1F1C 001:905 JLINK_ReadMemEx(0x40021C04, 0x0004 Bytes, ..., Flags = 0x02000004) -- CPU_ReadMem(4 bytes @ 0x40021C04) - Data: 00 00 00 00  returns 0x04 (0001ms, 0805ms total)
T1F1C 001:906 JLINK_ReadMemEx(0x40021C08, 0x0004 Bytes, ..., Flags = 0x02000004) -- CPU_ReadMem(4 bytes @ 0x40021C08) - Data: 00 00 00 00  returns 0x04 (0001ms, 0806ms total)
T1F1C 001:907 JLINK_ReadMemEx(0x40021C0C, 0x0004 Bytes, ..., Flags = 0x02000004) -- CPU_ReadMem(4 bytes @ 0x40021C0C) - Data: 00 00 00 00  returns 0x04 (0001ms, 0807ms total)
T1F1C 001:908 JLINK_ReadMemEx(0x40021C10, 0x0004 Bytes, ..., Flags = 0x02000004) -- CPU_ReadMem(4 bytes @ 0x40021C10) - Data: 00 00 00 00  returns 0x04 (0001ms, 0808ms total)
T1F1C 001:909 JLINK_ReadMemEx(0x40021C14, 0x0004 Bytes, ..., Flags = 0x02000004) -- CPU_ReadMem(4 bytes @ 0x40021C14) - Data: 00 00 00 00  returns 0x04 (0001ms, 0809ms total)
T1F1C 001:910 JLINK_ReadMemEx(0x40021C14, 0x0004 Bytes, ..., Flags = 0x02000004) -- CPU_ReadMem(4 bytes @ 0x40021C14) - Data: 00 00 00 00  returns 0x04 (0001ms, 0810ms total)
T1F1C 001:911 JLINK_ReadMemEx(0x40021C1C, 0x000C Bytes, ..., Flags = 0x02000004) -- CPU_ReadMem(12 bytes @ 0x40021C1C) - Data: 00 00 00 00 00 00 00 00 00 00 00 00  returns 0x0C (0001ms, 0811ms total)
T1F1C 001:912 JLINK_ReadMemEx(0x40021C1C, 0x0004 Bytes, ..., Flags = 0x02000004) -- CPU_ReadMem(4 bytes @ 0x40021C1C) - Data: 00 00 00 00  returns 0x04 (0001ms, 0812ms total)
T1F1C 001:913 JLINK_ReadMemEx(0x40021C20, 0x0004 Bytes, ..., Flags = 0x02000004) -- CPU_ReadMem(4 bytes @ 0x40021C20) - Data: 00 00 00 00  returns 0x04 (0001ms, 0813ms total)
T1F1C 001:914 JLINK_ReadMemEx(0x40021C24, 0x0004 Bytes, ..., Flags = 0x02000004) -- CPU_ReadMem(4 bytes @ 0x40021C24) - Data: 00 00 00 00  returns 0x04 (0001ms, 0814ms total)
T1F1C 001:915 JLINK_ReadMemEx(0x40021C28, 0x0004 Bytes, ..., Flags = 0x02000004) -- CPU_ReadMem(4 bytes @ 0x40021C28) - Data: 00 00 00 00  returns 0x04 (0001ms, 0815ms total)
T1F1C 001:916 JLINK_ReadMemEx(0x40021C28, 0x0004 Bytes, ..., Flags = 0x02000004) -- CPU_ReadMem(4 bytes @ 0x40021C28) - Data: 00 00 00 00  returns 0x04 (0001ms, 0816ms total)
T1F1C 004:366 JLINK_ReadMemEx(0xFFFFFFFE, 0x0002 Bytes, ..., Flags = 0x02000000) -- CPU_ReadMem(2 bytes @ 0xFFFFFFFE) - Data: AA AA  returns 0xFFFFFFFF (0003ms, 0819ms total)
T1F1C 004:369 JLINK_ReadMemEx(0x00000000, 0x003C Bytes, ..., Flags = 0x02000000) -- CPU_ReadMem(64 bytes @ 0x00000000) -- Updating C cache (64 bytes @ 0x00000000) -- Read from C cache (60 bytes @ 0x00000000) - Data: 82 80 C1 C6 01 34 20 90 2C DF B3 A2 1D 71 2E BE ...  returns 0x3C (0001ms, 0820ms total)
T1F1C 004:372 JLINK_ReadMemEx(0xFFFFFFFE, 0x0002 Bytes, ..., Flags = 0x02000000) -- CPU_ReadMem(2 bytes @ 0xFFFFFFFE) - Data: AA AA  returns 0xFFFFFFFF (0002ms, 0822ms total)
T1F1C 004:375 JLINK_ReadMemEx(0xFFFFFFFE, 0x0002 Bytes, ..., Flags = 0x02000000) -- CPU_ReadMem(2 bytes @ 0xFFFFFFFE) - Data: AA AA  returns 0xFFFFFFFF (0002ms, 0824ms total)
T1F1C 004:381 JLINK_ReadMemEx(0xFFFFFFFE, 0x0002 Bytes, ..., Flags = 0x02000000) -- CPU_ReadMem(2 bytes @ 0xFFFFFFFE) - Data: AA AA  returns 0xFFFFFFFF (0002ms, 0827ms total)
T1F1C 004:558 JLINK_ReadReg(R0)  returns 0x00000000 (0001ms, 0828ms total)
T1F1C 004:559 JLINK_ReadReg(R1)  returns 0x00000000 (0001ms, 0829ms total)
T1F1C 004:560 JLINK_ReadReg(R2)  returns 0x00000000 (0000ms, 0829ms total)
T1F1C 004:560 JLINK_ReadReg(R3)  returns 0x00000000 (0000ms, 0829ms total)
T1F1C 004:560 JLINK_ReadReg(R4)  returns 0x00000000 (0000ms, 0829ms total)
T1F1C 004:560 JLINK_ReadReg(R5)  returns 0x00000000 (0000ms, 0829ms total)
T1F1C 004:560 JLINK_ReadReg(R6)  returns 0x00000000 (0000ms, 0829ms total)
T1F1C 004:560 JLINK_ReadReg(R7)  returns 0x00000000 (0000ms, 0829ms total)
T1F1C 004:560 JLINK_ReadReg(R8)  returns 0x00000000 (0000ms, 0829ms total)
T1F1C 004:560 JLINK_ReadReg(R9)  returns 0x00000000 (0000ms, 0829ms total)
T1F1C 004:560 JLINK_ReadReg(R10)  returns 0x00000000 (0000ms, 0829ms total)
T1F1C 004:560 JLINK_ReadReg(R11)  returns 0x00000000 (0000ms, 0829ms total)
T1F1C 004:560 JLINK_ReadReg(R12)  returns 0x00000000 (0000ms, 0829ms total)
T1F1C 004:560 JLINK_ReadReg(R13 (SP))  returns 0xFFFFFFFC (0000ms, 0829ms total)
T1F1C 004:560 JLINK_ReadReg(R14)  returns 0xFFFFFFFF (0000ms, 0829ms total)
T1F1C 004:560 JLINK_ReadReg(R15 (PC))  returns 0xFFFFFFFE (0000ms, 0829ms total)
T1F1C 004:560 JLINK_ReadReg(XPSR)  returns 0x01000000 (0000ms, 0829ms total)
T1F1C 004:560 JLINK_ReadReg(MSP)  returns 0xFFFFFFFC (0000ms, 0829ms total)
T1F1C 004:560 JLINK_ReadReg(PSP)  returns 0x00000000 (0000ms, 0829ms total)
T1F1C 004:560 JLINK_ReadReg(CFBP)  returns 0x00000000 (0000ms, 0829ms total)
T1F1C 004:560 JLINK_ReadReg(FPSCR)  returns 0x00000000 (0004ms, 0833ms total)
T1F1C 004:564 JLINK_ReadReg(FPS0)  returns 0x00000000 (0000ms, 0833ms total)
T1F1C 004:564 JLINK_ReadReg(FPS1)  returns 0x00000000 (0000ms, 0833ms total)
T1F1C 004:564 JLINK_ReadReg(FPS2)  returns 0x00000000 (0000ms, 0833ms total)
T1F1C 004:564 JLINK_ReadReg(FPS3)  returns 0x00000000 (0000ms, 0833ms total)
T1F1C 004:564 JLINK_ReadReg(FPS4)  returns 0x00000000 (0000ms, 0833ms total)
T1F1C 004:564 JLINK_ReadReg(FPS5)  returns 0x00000000 (0000ms, 0833ms total)
T1F1C 004:564 JLINK_ReadReg(FPS6)  returns 0x00000000 (0000ms, 0833ms total)
T1F1C 004:564 JLINK_ReadReg(FPS7)  returns 0x00000000 (0000ms, 0833ms total)
T1F1C 004:564 JLINK_ReadReg(FPS8)  returns 0x00000000 (0000ms, 0833ms total)
T1F1C 004:564 JLINK_ReadReg(FPS9)  returns 0x00000000 (0000ms, 0833ms total)
T1F1C 004:564 JLINK_ReadReg(FPS10)  returns 0x00000000 (0000ms, 0833ms total)
T1F1C 004:564 JLINK_ReadReg(FPS11)  returns 0x00000000 (0000ms, 0833ms total)
T1F1C 004:564 JLINK_ReadReg(FPS12)  returns 0x00000000 (0000ms, 0833ms total)
T1F1C 004:564 JLINK_ReadReg(FPS13)  returns 0x00000000 (0000ms, 0833ms total)
T1F1C 004:564 JLINK_ReadReg(FPS14)  returns 0x00000000 (0000ms, 0833ms total)
T1F1C 004:564 JLINK_ReadReg(FPS15)  returns 0xFFFFFFFF (0000ms, 0833ms total)
T1F1C 004:564 JLINK_ReadReg(FPS16)  returns 0x00000000 (0000ms, 0833ms total)
T1F1C 004:564 JLINK_ReadReg(FPS17)  returns 0x00000000 (0000ms, 0833ms total)
T1F1C 004:564 JLINK_ReadReg(FPS18)  returns 0x00000000 (0000ms, 0833ms total)
T1F1C 004:564 JLINK_ReadReg(FPS19)  returns 0x00000000 (0000ms, 0833ms total)
T1F1C 004:564 JLINK_ReadReg(FPS20)  returns 0x00000000 (0000ms, 0833ms total)
T1F1C 004:564 JLINK_ReadReg(FPS21)  returns 0x00000000 (0000ms, 0833ms total)
T1F1C 004:564 JLINK_ReadReg(FPS22)  returns 0x00000000 (0000ms, 0833ms total)
T1F1C 004:564 JLINK_ReadReg(FPS23)  returns 0x00000000 (0000ms, 0833ms total)
T1F1C 004:564 JLINK_ReadReg(FPS24)  returns 0x00000000 (0000ms, 0833ms total)
T1F1C 004:564 JLINK_ReadReg(FPS25)  returns 0x00000000 (0000ms, 0833ms total)
T1F1C 004:564 JLINK_ReadReg(FPS26)  returns 0x00000000 (0001ms, 0834ms total)
T1F1C 004:565 JLINK_ReadReg(FPS27)  returns 0x00000000 (0000ms, 0834ms total)
T1F1C 004:565 JLINK_ReadReg(FPS28)  returns 0x00000000 (0000ms, 0834ms total)
T1F1C 004:565 JLINK_ReadReg(FPS29)  returns 0x00000000 (0000ms, 0834ms total)
T1F1C 004:565 JLINK_ReadReg(FPS30)  returns 0x00000000 (0000ms, 0834ms total)
T1F1C 004:565 JLINK_ReadReg(FPS31)  returns 0xFFFFFFFF (0000ms, 0834ms total)
T1F1C 004:568 JLINK_ReadMemEx(0x20010128, 0x0004 Bytes, ..., Flags = 0x02000000) -- CPU_ReadMem(64 bytes @ 0x20010100) -- Updating C cache (64 bytes @ 0x20010100) -- Read from C cache (4 bytes @ 0x20010128) - Data: 8C 20 9F 51  returns 0x04 (0002ms, 0836ms total)
T1F1C 004:578 JLINK_ReadMemEx(0x200000A4, 0x0001 Bytes, ..., Flags = 0x02000000) -- CPU_ReadMem(64 bytes @ 0x20000080) -- Updating C cache (64 bytes @ 0x20000080) -- Read from C cache (1 bytes @ 0x200000A4) - Data: A2  returns 0x01 (0002ms, 0838ms total)
T1F1C 004:582 JLINK_ReadMemEx(0x200000A5, 0x0001 Bytes, ..., Flags = 0x02000000) -- Read from C cache (1 bytes @ 0x200000A5) - Data: 03  returns 0x01 (0000ms, 0838ms total)
T1F1C 004:584 JLINK_ReadMemEx(0x200000A6, 0x0001 Bytes, ..., Flags = 0x02000000) -- Read from C cache (1 bytes @ 0x200000A6) - Data: 11  returns 0x01 (0000ms, 0838ms total)
T1F1C 004:585 JLINK_ReadMemEx(0x200000A7, 0x0001 Bytes, ..., Flags = 0x02000000) -- Read from C cache (1 bytes @ 0x200000A7) - Data: 43  returns 0x01 (0000ms, 0838ms total)
T1F1C 004:587 JLINK_ReadMemEx(0x20010B58, 0x0020 Bytes, ..., Flags = 0x02000000) -- CPU_ReadMem(64 bytes @ 0x20010B40) -- Updating C cache (64 bytes @ 0x20010B40) -- Read from C cache (32 bytes @ 0x20010B58) - Data: 86 31 BA 49 4C E4 D8 A7 2F 3E 64 E9 CD 1D 40 5E ...  returns 0x20 (0002ms, 0840ms total)
T1F1C 004:596 JLINK_ReadMemEx(0x20010230, 0x0004 Bytes, ..., Flags = 0x02000000) -- CPU_ReadMem(64 bytes @ 0x20010200) -- Updating C cache (64 bytes @ 0x20010200) -- Read from C cache (4 bytes @ 0x20010230) - Data: C4 24 65 E9  returns 0x04 (0001ms, 0841ms total)
T1F1C 004:613 JLINK_ReadMemEx(0x200101B2, 0x0002 Bytes, ..., Flags = 0x02000000) -- CPU_ReadMem(64 bytes @ 0x20010180) -- Updating C cache (64 bytes @ 0x20010180) -- Read from C cache (2 bytes @ 0x200101B2) - Data: 20 FF  returns 0x02 (0001ms, 0842ms total)
T1F1C 004:626 JLINK_ReadMemEx(0x200101A2, 0x0002 Bytes, ..., Flags = 0x02000000) -- Read from C cache (2 bytes @ 0x200101A2) - Data: CE 7B  returns 0x02 (0000ms, 0842ms total)
T1F1C 004:649 JLINK_ReadMemEx(0x2001023C, 0x0002 Bytes, ..., Flags = 0x02000000) -- Read from C cache (2 bytes @ 0x2001023C) - Data: 08 31  returns 0x02 (0000ms, 0842ms total)
T1F1C 004:651 JLINK_ReadMemEx(0x2001022C, 0x0004 Bytes, ..., Flags = 0x02000000) -- Read from C cache (4 bytes @ 0x2001022C) - Data: 4D E5 C6 04  returns 0x04 (0000ms, 0842ms total)
T1F1C 004:652 JLINK_ReadMemEx(0x20010208, 0x0004 Bytes, ..., Flags = 0x02000000) -- Read from C cache (4 bytes @ 0x20010208) - Data: 8B D4 D4 13  returns 0x04 (0000ms, 0842ms total)
T10A8 004:854 JLINK_ReadMemEx(0xFFFFFFFE, 0x0002 Bytes, ..., Flags = 0x02000000) -- CPU_ReadMem(2 bytes @ 0xFFFFFFFE) - Data: AA AA  returns 0xFFFFFFFF (0003ms, 0845ms total)
T10A8 004:857 JLINK_SetBPEx(Addr = 0x08013B24, Type = 0xFFFFFFF2)  returns 0x00000001 (0000ms, 0845ms total)
T10A8 004:857 JLINK_SetBPEx(Addr = 0x08013B26, Type = 0xFFFFFFF2)  returns 0x00000002 (0000ms, 0845ms total)
T10A8 004:857 JLINK_Go() -- CPU_WriteMem(4 bytes @ 0xE0002000) -- CPU_WriteMem(4 bytes @ 0xE0002000) -- CPU_ReadMem(4 bytes @ 0xE0001000) -- CPU_WriteMem(4 bytes @ 0xE0002008) -- CPU_WriteMem(4 bytes @ 0xE000200C) -- CPU_WriteMem(4 bytes @ 0xE0002010) -- CPU_WriteMem(4 bytes @ 0xE0002014) -- CPU_WriteMem(4 bytes @ 0xE0002018) -- CPU_WriteMem(4 bytes @ 0xE000201C) -- CPU_WriteMem(4 bytes @ 0xE0002020) -- CPU_WriteMem(4 bytes @ 0xE0002024) -- CPU_WriteMem(4 bytes @ 0xE0001004) (0007ms, 0852ms total)
T10A8 004:964 JLINK_IsHalted()  returns TRUE (0003ms, 0855ms total)
T10A8 004:967 JLINK_Halt()  returns 0x00 (0000ms, 0852ms total)
T10A8 004:967 JLINK_IsHalted()  returns TRUE (0000ms, 0852ms total)
T10A8 004:967 JLINK_IsHalted()  returns TRUE (0000ms, 0852ms total)
T10A8 004:967 JLINK_IsHalted()  returns TRUE (0000ms, 0852ms total)
T10A8 004:967 JLINK_ReadReg(R15 (PC))  returns 0xFFFFFFFE (0001ms, 0853ms total)
T10A8 004:968 JLINK_ReadReg(XPSR)  returns 0x01000003 (0000ms, 0853ms total)
T10A8 004:968 JLINK_ClrBPEx(BPHandle = 0x00000001)  returns 0x00 (0000ms, 0853ms total)
T10A8 004:968 JLINK_ClrBPEx(BPHandle = 0x00000002)  returns 0x00 (0000ms, 0853ms total)
T10A8 004:968 JLINK_ReadMemU32(0xE000ED30, 0x0001 Items, ...) -- CPU_ReadMem(4 bytes @ 0xE000ED30) - Data: 01 00 00 00  returns 0x01 (0001ms, 0854ms total)
T10A8 004:969 JLINK_ReadMemU32(0xE0001028, 0x0001 Items, ...) -- CPU_ReadMem(4 bytes @ 0xE0001028) - Data: 00 00 00 00  returns 0x01 (0001ms, 0855ms total)
T10A8 004:970 JLINK_ReadMemU32(0xE0001038, 0x0001 Items, ...) -- CPU_ReadMem(4 bytes @ 0xE0001038) - Data: 00 02 00 00  returns 0x01 (0001ms, 0856ms total)
T10A8 004:971 JLINK_ReadMemU32(0xE0001048, 0x0001 Items, ...) -- CPU_ReadMem(4 bytes @ 0xE0001048) - Data: 00 00 00 00  returns 0x01 (0001ms, 0857ms total)
T10A8 004:972 JLINK_ReadMemU32(0xE0001058, 0x0001 Items, ...) -- CPU_ReadMem(4 bytes @ 0xE0001058) - Data: 00 00 00 00  returns 0x01 (0001ms, 0858ms total)
T10A8 004:974 JLINK_ReadReg(R0)  returns 0x00000000 (0000ms, 0858ms total)
T10A8 004:974 JLINK_ReadReg(R1)  returns 0x00000000 (0000ms, 0858ms total)
T10A8 004:974 JLINK_ReadReg(R2)  returns 0x00000000 (0000ms, 0858ms total)
T10A8 004:974 JLINK_ReadReg(R3)  returns 0x00000000 (0000ms, 0858ms total)
T10A8 004:974 JLINK_ReadReg(R4)  returns 0x00000000 (0000ms, 0858ms total)
T10A8 004:974 JLINK_ReadReg(R5)  returns 0x00000000 (0000ms, 0858ms total)
T10A8 004:974 JLINK_ReadReg(R6)  returns 0x00000000 (0000ms, 0858ms total)
T10A8 004:974 JLINK_ReadReg(R7)  returns 0x00000000 (0000ms, 0858ms total)
T10A8 004:974 JLINK_ReadReg(R8)  returns 0x00000000 (0000ms, 0858ms total)
T10A8 004:974 JLINK_ReadReg(R9)  returns 0x00000000 (0000ms, 0858ms total)
T10A8 004:974 JLINK_ReadReg(R10)  returns 0x00000000 (0000ms, 0858ms total)
T10A8 004:974 JLINK_ReadReg(R11)  returns 0x00000000 (0000ms, 0858ms total)
T10A8 004:974 JLINK_ReadReg(R12)  returns 0x00000000 (0000ms, 0858ms total)
T10A8 004:974 JLINK_ReadReg(R13 (SP))  returns 0xFFFFFFD8 (0000ms, 0858ms total)
T10A8 004:974 JLINK_ReadReg(R14)  returns 0xFFFFFFF9 (0000ms, 0858ms total)
T10A8 004:974 JLINK_ReadReg(R15 (PC))  returns 0xFFFFFFFE (0000ms, 0858ms total)
T10A8 004:974 JLINK_ReadReg(XPSR)  returns 0x01000003 (0000ms, 0858ms total)
T10A8 004:974 JLINK_ReadReg(MSP)  returns 0xFFFFFFD8 (0000ms, 0858ms total)
T10A8 004:974 JLINK_ReadReg(PSP)  returns 0x00000000 (0000ms, 0858ms total)
T10A8 004:974 JLINK_ReadReg(CFBP)  returns 0x00000000 (0000ms, 0858ms total)
T10A8 004:974 JLINK_ReadReg(FPSCR)  returns 0x00000000 (0004ms, 0862ms total)
T10A8 004:978 JLINK_ReadReg(FPS0)  returns 0x00000000 (0000ms, 0862ms total)
T10A8 004:978 JLINK_ReadReg(FPS1)  returns 0x00000000 (0000ms, 0862ms total)
T10A8 004:978 JLINK_ReadReg(FPS2)  returns 0x00000000 (0000ms, 0862ms total)
T10A8 004:978 JLINK_ReadReg(FPS3)  returns 0x00000000 (0000ms, 0862ms total)
T10A8 004:978 JLINK_ReadReg(FPS4)  returns 0x00000000 (0000ms, 0862ms total)
T10A8 004:978 JLINK_ReadReg(FPS5)  returns 0x00000000 (0000ms, 0862ms total)
T10A8 004:978 JLINK_ReadReg(FPS6)  returns 0x00000000 (0000ms, 0862ms total)
T10A8 004:978 JLINK_ReadReg(FPS7)  returns 0x00000000 (0000ms, 0862ms total)
T10A8 004:978 JLINK_ReadReg(FPS8)  returns 0x00000000 (0000ms, 0862ms total)
T10A8 004:978 JLINK_ReadReg(FPS9)  returns 0x00000000 (0000ms, 0862ms total)
T10A8 004:978 JLINK_ReadReg(FPS10)  returns 0x00000000 (0000ms, 0862ms total)
T10A8 004:978 JLINK_ReadReg(FPS11)  returns 0x00000000 (0000ms, 0862ms total)
T10A8 004:978 JLINK_ReadReg(FPS12)  returns 0x00000000 (0000ms, 0862ms total)
T10A8 004:978 JLINK_ReadReg(FPS13)  returns 0x00000000 (0000ms, 0862ms total)
T10A8 004:978 JLINK_ReadReg(FPS14)  returns 0x00000000 (0000ms, 0862ms total)
T10A8 004:978 JLINK_ReadReg(FPS15)  returns 0xFFFFFFFF (0000ms, 0862ms total)
T10A8 004:978 JLINK_ReadReg(FPS16)  returns 0x00000000 (0000ms, 0862ms total)
T10A8 004:978 JLINK_ReadReg(FPS17)  returns 0x00000000 (0000ms, 0862ms total)
T10A8 004:978 JLINK_ReadReg(FPS18)  returns 0x00000000 (0000ms, 0862ms total)
T10A8 004:978 JLINK_ReadReg(FPS19)  returns 0x00000000 (0000ms, 0862ms total)
T10A8 004:978 JLINK_ReadReg(FPS20)  returns 0x00000000 (0000ms, 0862ms total)
T10A8 004:978 JLINK_ReadReg(FPS21)  returns 0x00000000 (0000ms, 0862ms total)
T10A8 004:978 JLINK_ReadReg(FPS22)  returns 0x00000000 (0000ms, 0862ms total)
T10A8 004:978 JLINK_ReadReg(FPS23)  returns 0x00000000 (0000ms, 0862ms total)
T10A8 004:978 JLINK_ReadReg(FPS24)  returns 0x00000000 (0000ms, 0862ms total)
T10A8 004:978 JLINK_ReadReg(FPS25)  returns 0x00000000 (0000ms, 0862ms total)
T10A8 004:978 JLINK_ReadReg(FPS26)  returns 0x00000000 (0000ms, 0862ms total)
T10A8 004:978 JLINK_ReadReg(FPS27)  returns 0x00000000 (0000ms, 0862ms total)
T10A8 004:978 JLINK_ReadReg(FPS28)  returns 0x00000000 (0000ms, 0862ms total)
T10A8 004:979 JLINK_ReadReg(FPS29)  returns 0x00000000 (0000ms, 0863ms total)
T10A8 004:979 JLINK_ReadReg(FPS30)  returns 0x00000000 (0000ms, 0863ms total)
T10A8 004:979 JLINK_ReadReg(FPS31)  returns 0xFFFFFFFF (0000ms, 0863ms total)
T1F1C 005:003 JLINK_ReadMemEx(0xFFFFFFF0, 0x0004 Bytes, ..., Flags = 0x02000000) -- CPU_ReadMem(64 bytes @ 0xFFFFFFC0) -- CPU_ReadMem(4 bytes @ 0xFFFFFFF0) - Data: AA AA AA AA  returns 0xFFFFFFFF (0005ms, 0868ms total)
T1F1C 005:008 JLINK_ReadMemEx(0xFFFFFFF4, 0x0004 Bytes, ..., Flags = 0x02000000) -- CPU_ReadMem(64 bytes @ 0xFFFFFFC0) -- CPU_ReadMem(4 bytes @ 0xFFFFFFF4) - Data: AA AA AA AA  returns 0xFFFFFFFF (0005ms, 0873ms total)
T1F1C 005:013 JLINK_ReadMemEx(0xFFFFFFEC, 0x0004 Bytes, ..., Flags = 0x02000000) -- CPU_ReadMem(64 bytes @ 0xFFFFFFC0) -- CPU_ReadMem(4 bytes @ 0xFFFFFFEC) - Data: AA AA AA AA  returns 0xFFFFFFFF (0005ms, 0878ms total)
T1F1C 005:018 JLINK_ReadMemEx(0xE000ED28, 0x0004 Bytes, ..., Flags = 0x02000000) -- CPU_ReadMem(4 bytes @ 0xE000ED28) - Data: 01 04 00 00  returns 0x04 (0001ms, 0879ms total)
T1F1C 005:028 JLINK_ReadMemEx(0xA0000000, 0x001C Bytes, ..., Flags = 0x02000004) -- CPU_ReadMem(28 bytes @ 0xA0000000) - Data: 00 00 00 00 00 00 00 00 00 00 00 00 00 00 00 00 ...  returns 0x1C (0002ms, 0881ms total)
T1F1C 005:030 JLINK_ReadMemEx(0xA0000000, 0x0004 Bytes, ..., Flags = 0x02000004) -- CPU_ReadMem(4 bytes @ 0xA0000000) - Data: 00 00 00 00  returns 0x04 (0001ms, 0882ms total)
T1F1C 005:031 JLINK_ReadMemEx(0xA0000004, 0x0004 Bytes, ..., Flags = 0x02000004) -- CPU_ReadMem(4 bytes @ 0xA0000004) - Data: 00 00 00 00  returns 0x04 (0001ms, 0883ms total)
T1F1C 005:032 JLINK_ReadMemEx(0xA0000008, 0x0004 Bytes, ..., Flags = 0x02000004) -- CPU_ReadMem(4 bytes @ 0xA0000008) - Data: 00 00 00 00  returns 0x04 (0001ms, 0884ms total)
T1F1C 005:033 JLINK_ReadMemEx(0xA000000C, 0x0004 Bytes, ..., Flags = 0x02000004) -- CPU_ReadMem(4 bytes @ 0xA000000C) - Data: 00 00 00 00  returns 0x04 (0001ms, 0885ms total)
T1F1C 005:034 JLINK_ReadMemEx(0xA0000010, 0x0004 Bytes, ..., Flags = 0x02000004) -- CPU_ReadMem(4 bytes @ 0xA0000010) - Data: 00 00 00 00  returns 0x04 (0001ms, 0886ms total)
T1F1C 005:035 JLINK_ReadMemEx(0xA0000014, 0x0004 Bytes, ..., Flags = 0x02000004) -- CPU_ReadMem(4 bytes @ 0xA0000014) - Data: 00 00 00 00  returns 0x04 (0001ms, 0887ms total)
T1F1C 005:036 JLINK_ReadMemEx(0xA0000018, 0x0004 Bytes, ..., Flags = 0x02000004) -- CPU_ReadMem(4 bytes @ 0xA0000018) - Data: 00 00 00 00  returns 0x04 (0001ms, 0888ms total)
T1F1C 005:037 JLINK_ReadMemEx(0xA000001C, 0x0004 Bytes, ..., Flags = 0x02000004) -- CPU_ReadMem(4 bytes @ 0xA000001C) - Data: 00 00 00 00  returns 0x04 (0001ms, 0889ms total)
T1F1C 005:038 JLINK_ReadMemEx(0xA000001C, 0x0004 Bytes, ..., Flags = 0x02000004) -- CPU_ReadMem(4 bytes @ 0xA000001C) - Data: 00 00 00 00  returns 0x04 (0001ms, 0890ms total)
T1F1C 005:039 JLINK_ReadMemEx(0xA0000080, 0x000C Bytes, ..., Flags = 0x02000004) -- CPU_ReadMem(12 bytes @ 0xA0000080) - Data: 00 00 00 00 00 00 00 00 00 00 00 00  returns 0x0C (0001ms, 0891ms total)
T1F1C 005:040 JLINK_ReadMemEx(0xA0000080, 0x0004 Bytes, ..., Flags = 0x02000004) -- CPU_ReadMem(4 bytes @ 0xA0000080) - Data: 00 00 00 00  returns 0x04 (0001ms, 0892ms total)
T1F1C 005:041 JLINK_ReadMemEx(0xA0000084, 0x0004 Bytes, ..., Flags = 0x02000004) -- CPU_ReadMem(4 bytes @ 0xA0000084) - Data: 00 00 00 00  returns 0x04 (0001ms, 0893ms total)
T1F1C 005:042 JLINK_ReadMemEx(0xA0000088, 0x0004 Bytes, ..., Flags = 0x02000004) -- CPU_ReadMem(4 bytes @ 0xA0000088) - Data: 00 00 00 00  returns 0x04 (0001ms, 0894ms total)
T1F1C 005:043 JLINK_ReadMemEx(0xA000008C, 0x0004 Bytes, ..., Flags = 0x02000004) -- CPU_ReadMem(4 bytes @ 0xA000008C) - Data: 00 00 00 00  returns 0x04 (0001ms, 0895ms total)
